[2021-Dec-28 11:28:20] [ info] --------------------------------------------------------------------------------
[2021-Dec-28 11:28:20] [ info] nrfjprog --program nrf52832_xxaa.hex --log 
[2021-Dec-28 11:28:20] [ info] nrfjprog version 10.15.1 external
[2021-Dec-28 11:28:20] [ info] --------------------------------------------------------------------------------
[2021-Dec-28 11:28:20] [ info] Load library at /opt/nrf-command-line-tools/lib/libnrfjprogdll.so.
[2021-Dec-28 11:28:20] [ info] Library loaded, loading member functions.
[2021-Dec-28 11:28:20] [ info] Member functions succesfully loaded.
[2021-Dec-28 11:28:20] [debug] [ Client] - open
[2021-Dec-28 11:28:20] [debug] [ Client] - start
[2021-Dec-28 11:28:20] [ info] [ Client] - stdout: Jlinkarm nRF Worker ready. Handling sequence 714eff82-b3b8-4e80-8742-3ab3ee2943dc.
[2021-Dec-28 11:28:20] [debug] [SeggerBackend] - Logger sink registered in Segger backend logger
[2021-Dec-28 11:28:20] [debug] [  JLink] - Logger sink registered in JLink logger
[2021-Dec-28 11:28:20] [debug] [  nRFXX] - open
[2021-Dec-28 11:28:20] [debug] [  nRFXX] - just_check_family
[2021-Dec-28 11:28:20] [debug] [SeggerBackend] - open_dll
[2021-Dec-28 11:28:20] [debug] [SeggerBackend] - No J-Link DLL path was provided. Attempting to auto detect.
[2021-Dec-28 11:28:20] [ info] [SeggerBackend] - Load library at /opt/SEGGER/JLink/libjlinkarm.so.7.58.3.
[2021-Dec-28 11:28:20] [trace] [ Client] - Command open executed for 1 milliseconds with result 0
[2021-Dec-28 11:28:20] [debug] [ Client] - enum_emu_snr
[2021-Dec-28 11:28:20] [ info] [SeggerBackend] - Library loaded, loading member functions.
[2021-Dec-28 11:28:20] [ info] [SeggerBackend] - Member functions succesfully loaded.
[2021-Dec-28 11:28:20] [debug] [SeggerBackend] - dll_version
[2021-Dec-28 11:28:20] [ info] [SeggerBackend] - Segger dll version 7.58.c loaded.
[2021-Dec-28 11:28:20] [trace] [ Worker] - Command open executed for 1 milliseconds with result 0
[2021-Dec-28 11:28:20] [debug] [  nRFXX] - enum_emu_con_info
[2021-Dec-28 11:28:20] [debug] [SeggerBackend] - is_connected_to_emu
[2021-Dec-28 11:28:20] [debug] [SeggerBackend] - enum_emu_con_info
[2021-Dec-28 11:28:20] [trace] [ Client] - Command enum_emu_con_info executed for 38 milliseconds with result 0
[2021-Dec-28 11:28:20] [debug] [SeggerBackend] - is_connected_to_emu
[2021-Dec-28 11:28:20] [trace] [ Worker] - Command enum_emu_con_info executed for 38 milliseconds with result 0
[2021-Dec-28 11:28:20] [debug] [  nRFXX] - close
[2021-Dec-28 11:28:20] [debug] [SeggerBackend] - is_connected_to_emu
[2021-Dec-28 11:28:20] [debug] [SeggerBackend] - close
[2021-Dec-28 11:28:20] [debug] [SeggerBackend] - disconnect_from_emu
[2021-Dec-28 11:28:20] [debug] [SeggerBackend] - is_connected_to_emu
[2021-Dec-28 11:28:20] [debug] [SeggerBackend] - Segger Backend closed.
[2021-Dec-28 11:28:20] [debug] [  nRFXX] - nRF family DLL closed
[2021-Dec-28 11:28:20] [trace] [ Client] - Command close executed for 10 milliseconds with result 0
[2021-Dec-28 11:28:20] [debug] [ Client] - terminate
[2021-Dec-28 11:28:20] [trace] [ Client] - Command terminate executed for 0 milliseconds with result 0
[2021-Dec-28 11:28:20] [trace] [ Worker] - Command close executed for 10 milliseconds with result 0
[2021-Dec-28 11:28:20] [trace] [ Worker] - Command terminate executed for 0 milliseconds with result 0
[2021-Dec-28 11:28:20] [trace] [ Worker] - Executed 4 commands for 49 milliseconds
[2021-Dec-28 11:28:20] [debug] [ Client] - Child process terminated with result 0
[2021-Dec-28 11:28:20] [debug] [ Client] - Worker process exited with code: 0
[2021-Dec-28 11:28:20] [debug] [ Client] - Worker process exited with code: 0
[2021-Dec-28 11:28:21] [trace] [ Client] - Executed 4 commands for 49 milliseconds
[2021-Dec-28 11:28:21] [debug] [ Client] - terminate
[2021-Dec-28 11:29:04] [ info] --------------------------------------------------------------------------------
[2021-Dec-28 11:29:04] [ info] nrfjprog --program nrf52832_xxaa.hex --log 
[2021-Dec-28 11:29:04] [ info] nrfjprog version 10.15.1 external
[2021-Dec-28 11:29:04] [ info] --------------------------------------------------------------------------------
[2021-Dec-28 11:29:04] [ info] Load library at /opt/nrf-command-line-tools/lib/libnrfjprogdll.so.
[2021-Dec-28 11:29:04] [ info] Library loaded, loading member functions.
[2021-Dec-28 11:29:04] [ info] Member functions succesfully loaded.
[2021-Dec-28 11:29:04] [debug] [ Client] - open
[2021-Dec-28 11:29:04] [debug] [ Client] - start
[2021-Dec-28 11:29:04] [ info] [ Client] - stdout: Jlinkarm nRF Worker ready. Handling sequence dbbe78fd-9334-47c8-b75f-ed49abd45441.
[2021-Dec-28 11:29:04] [debug] [SeggerBackend] - Logger sink registered in Segger backend logger
[2021-Dec-28 11:29:04] [debug] [  JLink] - Logger sink registered in JLink logger
[2021-Dec-28 11:29:04] [debug] [  nRFXX] - open
[2021-Dec-28 11:29:04] [debug] [  nRFXX] - just_check_family
[2021-Dec-28 11:29:04] [debug] [SeggerBackend] - open_dll
[2021-Dec-28 11:29:04] [debug] [SeggerBackend] - No J-Link DLL path was provided. Attempting to auto detect.
[2021-Dec-28 11:29:04] [ info] [SeggerBackend] - Load library at /opt/SEGGER/JLink/libjlinkarm.so.7.58.3.
[2021-Dec-28 11:29:04] [trace] [ Client] - Command open executed for 1 milliseconds with result 0
[2021-Dec-28 11:29:04] [debug] [ Client] - enum_emu_snr
[2021-Dec-28 11:29:04] [ info] [SeggerBackend] - Library loaded, loading member functions.
[2021-Dec-28 11:29:04] [ info] [SeggerBackend] - Member functions succesfully loaded.
[2021-Dec-28 11:29:04] [debug] [SeggerBackend] - dll_version
[2021-Dec-28 11:29:04] [ info] [SeggerBackend] - Segger dll version 7.58.c loaded.
[2021-Dec-28 11:29:04] [trace] [ Worker] - Command open executed for 1 milliseconds with result 0
[2021-Dec-28 11:29:04] [debug] [  nRFXX] - enum_emu_con_info
[2021-Dec-28 11:29:04] [debug] [SeggerBackend] - is_connected_to_emu
[2021-Dec-28 11:29:04] [debug] [SeggerBackend] - enum_emu_con_info
[2021-Dec-28 11:29:04] [trace] [ Client] - Command enum_emu_con_info executed for 41 milliseconds with result 0
[2021-Dec-28 11:29:04] [debug] [ Client] - connect_to_emu_with_snr
[2021-Dec-28 11:29:04] [debug] [SeggerBackend] - is_connected_to_emu
[2021-Dec-28 11:29:04] [trace] [ Worker] - Command enum_emu_con_info executed for 41 milliseconds with result 0
[2021-Dec-28 11:29:04] [debug] [  nRFXX] - connect_to_emu_with_snr
[2021-Dec-28 11:29:04] [debug] [SeggerBackend] - is_connected_to_emu
[2021-Dec-28 11:29:04] [debug] [SeggerBackend] - connect_to_emu_with_snr
[2021-Dec-28 11:29:04] [debug] [SeggerBackend] - is_connected_to_emu
[2021-Dec-28 11:29:04] [debug] [SeggerBackend] - ---just_enum_emu_snr
[2021-Dec-28 11:29:04] [debug] [SeggerBackend] - ---just_get_num_emus
[2021-Dec-28 11:29:04] [debug] [SeggerBackend] - ---just_connect_to_emu_with_snr
[2021-Dec-28 11:29:04] [debug] [SeggerBackend] - ---just_connect_to_emu_without_snr
[2021-Dec-28 11:29:04] [debug] [SeggerBackend] - Segger logging enabled.
[2021-Dec-28 11:29:04] [trace] [  JLink] - Firmware: J-Link OB-SAM3U128-V2-NordicSemi compiled Feb  2 2021 16:47:20
[2021-Dec-28 11:29:04] [trace] [  JLink] - Firmware: J-Link OB-SAM3U128-V2-NordicSemi compiled Feb  2 2021 16:47:20
[2021-Dec-28 11:29:04] [trace] [  JLink] - Hardware: V1.00
[2021-Dec-28 11:29:04] [trace] [  JLink] - S/N: 682311701
[2021-Dec-28 11:29:04] [trace] [  JLink] - OEM: SEGGER
[2021-Dec-28 11:29:04] [trace] [  JLink] - Feature(s): RDI, FlashBP, FlashDL, JFlash, GDB
[2021-Dec-28 11:29:04] [trace] [  JLink] - TELNET listener socket opened on port 19021
[2021-Dec-28 11:29:04] [trace] [  JLink] - WEBSRV WEBSRV_Init(): Starting webserver thread(s)
[2021-Dec-28 11:29:04] [trace] [  JLink] - WEBSRV Webserver running on local port 19080
[2021-Dec-28 11:29:04] [trace] [  JLink] - - 122.529ms returns "O.K."  
[2021-Dec-28 11:29:04] [trace] [  JLink] - JLINK_HasError()  
[2021-Dec-28 11:29:04] [trace] [  JLink] - JLINK_Lock()  
[2021-Dec-28 11:29:04] [trace] [  JLink] - JLINK_GetHWStatus(...)  
[2021-Dec-28 11:29:04] [trace] [  JLink] - - 7.306ms returns 0  
[2021-Dec-28 11:29:04] [trace] [  JLink] - JLINK_HasError()  
[2021-Dec-28 11:29:04] [trace] [  JLink] - JLINK_ExecCommand("SetRestartOnClose = 0", ...).   
[2021-Dec-28 11:29:04] [trace] [  JLink] - - 0.004ms returns 0x01  
[2021-Dec-28 11:29:04] [trace] [  JLink] - JLINK_HasError()  
[2021-Dec-28 11:29:04] [trace] [  JLink] - JLINK_ExecCommand("DisableFlashDL", ...).   
[2021-Dec-28 11:29:04] [trace] [  JLink] - - 0.004ms returns 0x00  
[2021-Dec-28 11:29:04] [trace] [  JLink] - JLINK_HasError()  
[2021-Dec-28 11:29:04] [trace] [  JLink] - JLINK_ExecCommand("ExcludeFlashCacheRange 0x0-0xFFFFFFFF", ...).   
[2021-Dec-28 11:29:04] [trace] [  JLink] - - 0.003ms returns 0x00  
[2021-Dec-28 11:29:04] [trace] [  JLink] - JLINK_HasError()  
[2021-Dec-28 11:29:04] [trace] [  JLink] - JLINK_SetHookUnsecureDialog  
[2021-Dec-28 11:29:04] [trace] [  JLink] - JLINK_SetHookUnsecureDialog(...)
[2021-Dec-28 11:29:04] [trace] [  JLink] - - 0.011ms returns 0  
[2021-Dec-28 11:29:04] [trace] [  JLink] - JLINK_HasError()  
[2021-Dec-28 11:29:04] [trace] [  JLink] - JLINK_TIF_Select(JLINKARM_TIF_SWD)  
[2021-Dec-28 11:29:04] [trace] [  JLink] - - 19.089ms returns 0x00  
[2021-Dec-28 11:29:04] [trace] [  JLink] - JLINK_HasError()  
[2021-Dec-28 11:29:04] [trace] [  JLink] - JLINK_SetSpeed(2000)  
[2021-Dec-28 11:29:04] [trace] [  JLink] - - 5.831ms  
[2021-Dec-28 11:29:04] [trace] [  JLink] - JLINK_HasError()  
[2021-Dec-28 11:29:04] [trace] [  JLink] - JLINK_GetSN()  
[2021-Dec-28 11:29:04] [trace] [  JLink] - - 0.006ms returns 682311701  
[2021-Dec-28 11:29:04] [trace] [  JLink] - JLINK_HasError()  
[2021-Dec-28 11:29:04] [debug] [SeggerBackend] - read_debug_port_idr
[2021-Dec-28 11:29:04] [debug] [SeggerBackend] - read_debug_port_register
[2021-Dec-28 11:29:04] [debug] [SeggerBackend] - ---just_read_debug_port_register
[2021-Dec-28 11:29:04] [debug] [SeggerBackend] - coresight_configure
[2021-Dec-28 11:29:04] [trace] [  JLink] - JLINK_CORESIGHT_Configure()  
[2021-Dec-28 11:29:04] [trace] [  JLink] - - 6.560ms returns 0  
[2021-Dec-28 11:29:04] [trace] [  JLink] - JLINK_HasError()  
[2021-Dec-28 11:29:04] [debug] [SeggerBackend] - ---just_select_debug_port_register
[2021-Dec-28 11:29:04] [debug] [SeggerBackend] - Select AP 255, DP Bank 0, AP Bank 255
[2021-Dec-28 11:29:04] [trace] [  JLink] - JLINK_CORESIGHT_WriteAPDPReg(DP reg 0x02, 0x00000000)  
[2021-Dec-28 11:29:04] [trace] [  JLink] - - 3.057ms returns 0  
[2021-Dec-28 11:29:04] [trace] [  JLink] - JLINK_HasError()  
[2021-Dec-28 11:29:04] [trace] [  JLink] - JLINK_CORESIGHT_ReadAPDPReg(DP reg 0x00)  
[2021-Dec-28 11:29:04] [trace] [ Client] - Command connect_to_emu_with_snr executed for 297 milliseconds with result 0
[2021-Dec-28 11:29:04] [debug] [ Client] - read_connected_emu_snr
[2021-Dec-28 11:29:04] [trace] [ Client] - Command read_connected_emu_snr executed for 0 milliseconds with result 0
[2021-Dec-28 11:29:04] [debug] [ Client] - read_device_family
[2021-Dec-28 11:29:04] [trace] [  JLink] - Value=0x2BA01477
[2021-Dec-28 11:29:04] [trace] [  JLink] - - 7.586ms returns 0  
[2021-Dec-28 11:29:04] [trace] [  JLink] - JLINK_HasError()  
[2021-Dec-28 11:29:04] [trace] [  JLink] - - 0.008ms  
[2021-Dec-28 11:29:04] [trace] [ Worker] - Command connect_to_emu_with_snr executed for 297 milliseconds with result 0
[2021-Dec-28 11:29:04] [debug] [  nRFXX] - read_connected_emu_snr
[2021-Dec-28 11:29:04] [debug] [SeggerBackend] - is_connected_to_emu
[2021-Dec-28 11:29:04] [trace] [  JLink] - JLINK_IsOpen()  
[2021-Dec-28 11:29:04] [trace] [  JLink] - - 0.028ms returns 0x01  
[2021-Dec-28 11:29:04] [trace] [  JLink] - JLINK_HasError()  
[2021-Dec-28 11:29:04] [trace] [  JLink] - JLINK_Lock()  
[2021-Dec-28 11:29:04] [debug] [SeggerBackend] - read_connected_emu_snr
[2021-Dec-28 11:29:04] [trace] [  JLink] - - 0.005ms  
[2021-Dec-28 11:29:04] [trace] [ Worker] - Command read_connected_emu_snr executed for 0 milliseconds with result 0
[2021-Dec-28 11:29:04] [debug] [  nRFXX] - read_device_family
[2021-Dec-28 11:29:04] [debug] [SeggerBackend] - is_connected_to_emu
[2021-Dec-28 11:29:04] [trace] [  JLink] - JLINK_IsOpen()  
[2021-Dec-28 11:29:04] [trace] [  JLink] - - 0.007ms returns 0x01  
[2021-Dec-28 11:29:04] [trace] [  JLink] - JLINK_HasError()  
[2021-Dec-28 11:29:04] [trace] [  JLink] - JLINK_Lock()  
[2021-Dec-28 11:29:04] [debug] [SeggerBackend] - read_debug_port_idr
[2021-Dec-28 11:29:04] [debug] [SeggerBackend] - read_debug_port_register
[2021-Dec-28 11:29:04] [debug] [SeggerBackend] - ---just_read_debug_port_register
[2021-Dec-28 11:29:04] [debug] [SeggerBackend] - ---just_select_debug_port_register
[2021-Dec-28 11:29:04] [debug] [SeggerBackend] - Select AP 255, DP Bank 0, AP Bank 255
[2021-Dec-28 11:29:04] [trace] [  JLink] - JLINK_CORESIGHT_WriteAPDPReg(DP reg 0x02, 0x00000000)  
[2021-Dec-28 11:29:04] [trace] [  JLink] - - 4.313ms returns 0  
[2021-Dec-28 11:29:04] [trace] [  JLink] - JLINK_HasError()  
[2021-Dec-28 11:29:04] [trace] [  JLink] - JLINK_CORESIGHT_ReadAPDPReg(DP reg 0x00)  
[2021-Dec-28 11:29:04] [trace] [ Client] - Command read_device_family executed for 10 milliseconds with result 0
[2021-Dec-28 11:29:04] [debug] [ Client] - select_family
[2021-Dec-28 11:29:04] [trace] [ Client] - Command select_family executed for 0 milliseconds with result 0
[2021-Dec-28 11:29:04] [debug] [ Client] - read_device_info
[2021-Dec-28 11:29:04] [trace] [  JLink] - Value=0x2BA01477
[2021-Dec-28 11:29:04] [trace] [  JLink] - - 5.848ms returns 0  
[2021-Dec-28 11:29:04] [trace] [  JLink] - JLINK_HasError()  
[2021-Dec-28 11:29:04] [ info] [  nRFXX] - Discovered device from family NRF52.
[2021-Dec-28 11:29:04] [trace] [  JLink] - - 0.005ms  
[2021-Dec-28 11:29:04] [trace] [ Worker] - Command read_device_family executed for 10 milliseconds with result 0
[2021-Dec-28 11:29:04] [debug] [SeggerBackend] - set_core_data
[2021-Dec-28 11:29:04] [trace] [ Worker] - Command select_family executed for 0 milliseconds with result 0
[2021-Dec-28 11:29:04] [debug] [  nRF52] - read_device_info
[2021-Dec-28 11:29:04] [debug] [SeggerBackend] - is_connected_to_emu
[2021-Dec-28 11:29:04] [trace] [  JLink] - JLINK_IsOpen()  
[2021-Dec-28 11:29:04] [trace] [  JLink] - - 0.004ms returns 0x01  
[2021-Dec-28 11:29:04] [trace] [  JLink] - JLINK_HasError()  
[2021-Dec-28 11:29:04] [trace] [  JLink] - JLINK_Lock()  
[2021-Dec-28 11:29:04] [debug] [  nRF52] - Just_read_device_version
[2021-Dec-28 11:29:04] [debug] [  nRF52] - Just_readback_status
[2021-Dec-28 11:29:04] [debug] [  nRF52] - Just_is_ctrl_ap_available
[2021-Dec-28 11:29:04] [debug] [SeggerBackend] - read_access_port_register
[2021-Dec-28 11:29:04] [debug] [SeggerBackend] - ---just_read_access_port_register
[2021-Dec-28 11:29:04] [debug] [SeggerBackend] - ---just_is_debug_region_powered
[2021-Dec-28 11:29:04] [debug] [SeggerBackend] - ---just_read_debug_port_register
[2021-Dec-28 11:29:04] [debug] [SeggerBackend] - ---just_select_debug_port_register
[2021-Dec-28 11:29:04] [debug] [SeggerBackend] - Select AP 255, DP Bank 0, AP Bank 255
[2021-Dec-28 11:29:04] [trace] [  JLink] - JLINK_CORESIGHT_WriteAPDPReg(DP reg 0x02, 0x00000000)  
[2021-Dec-28 11:29:04] [trace] [  JLink] - - 4.804ms returns 0  
[2021-Dec-28 11:29:04] [trace] [  JLink] - JLINK_HasError()  
[2021-Dec-28 11:29:04] [trace] [  JLink] - JLINK_CORESIGHT_ReadAPDPReg(DP reg 0x01)  
[2021-Dec-28 11:29:04] [trace] [  JLink] - Value=0xF0000000
[2021-Dec-28 11:29:04] [trace] [  JLink] - - 6.635ms returns 0  
[2021-Dec-28 11:29:04] [trace] [  JLink] - JLINK_HasError()  
[2021-Dec-28 11:29:04] [debug] [SeggerBackend] - ---just_select_access_port_register
[2021-Dec-28 11:29:04] [debug] [SeggerBackend] - Select AP 1, DP Bank 0, AP Bank 15
[2021-Dec-28 11:29:04] [trace] [  JLink] - JLINK_CORESIGHT_WriteAPDPReg(DP reg 0x02, 0x010000F0)  
[2021-Dec-28 11:29:04] [trace] [  JLink] - - 4.012ms returns 0  
[2021-Dec-28 11:29:04] [trace] [  JLink] - JLINK_HasError()  
[2021-Dec-28 11:29:04] [trace] [  JLink] - JLINK_CORESIGHT_ReadAPDPReg(AP reg 0x03)  
[2021-Dec-28 11:29:04] [trace] [  JLink] - Value=0x02880000
[2021-Dec-28 11:29:04] [trace] [  JLink] - - 6.785ms returns 0  
[2021-Dec-28 11:29:04] [trace] [  JLink] - JLINK_HasError()  
[2021-Dec-28 11:29:04] [debug] [SeggerBackend] - read_access_port_register
[2021-Dec-28 11:29:04] [debug] [SeggerBackend] - ---just_read_access_port_register
[2021-Dec-28 11:29:04] [debug] [SeggerBackend] - ---just_select_access_port_register
[2021-Dec-28 11:29:04] [trace] [  JLink] - JLINK_CORESIGHT_ReadAPDPReg(AP reg 0x03)  
[2021-Dec-28 11:29:04] [trace] [  JLink] - Value=0x02880000
[2021-Dec-28 11:29:04] [trace] [  JLink] - - 6.131ms returns 0  
[2021-Dec-28 11:29:04] [trace] [  JLink] - JLINK_HasError()  
[2021-Dec-28 11:29:04] [debug] [SeggerBackend] - read_access_port_register
[2021-Dec-28 11:29:04] [debug] [SeggerBackend] - ---just_read_access_port_register
[2021-Dec-28 11:29:04] [debug] [SeggerBackend] - ---just_select_access_port_register
[2021-Dec-28 11:29:04] [trace] [  JLink] - JLINK_CORESIGHT_ReadAPDPReg(AP reg 0x03)  
[2021-Dec-28 11:29:04] [trace] [  JLink] - Value=0x02880000
[2021-Dec-28 11:29:04] [trace] [  JLink] - - 5.940ms returns 0  
[2021-Dec-28 11:29:04] [trace] [  JLink] - JLINK_HasError()  
[2021-Dec-28 11:29:04] [debug] [SeggerBackend] - read_access_port_register
[2021-Dec-28 11:29:04] [debug] [SeggerBackend] - ---just_read_access_port_register
[2021-Dec-28 11:29:04] [debug] [SeggerBackend] - ---just_select_access_port_register
[2021-Dec-28 11:29:04] [trace] [  JLink] - JLINK_CORESIGHT_ReadAPDPReg(AP reg 0x03)  
[2021-Dec-28 11:29:04] [trace] [  JLink] - Value=0x02880000
[2021-Dec-28 11:29:04] [trace] [  JLink] - - 5.903ms returns 0  
[2021-Dec-28 11:29:04] [trace] [  JLink] - JLINK_HasError()  
[2021-Dec-28 11:29:04] [debug] [SeggerBackend] - read_access_port_register
[2021-Dec-28 11:29:04] [debug] [SeggerBackend] - ---just_read_access_port_register
[2021-Dec-28 11:29:04] [debug] [SeggerBackend] - ---just_select_access_port_register
[2021-Dec-28 11:29:04] [debug] [SeggerBackend] - Select AP 1, DP Bank 0, AP Bank 0
[2021-Dec-28 11:29:04] [trace] [  JLink] - JLINK_CORESIGHT_WriteAPDPReg(DP reg 0x02, 0x01000000)  
[2021-Dec-28 11:29:04] [trace] [  JLink] - - 5.878ms returns 0  
[2021-Dec-28 11:29:04] [trace] [  JLink] - JLINK_HasError()  
[2021-Dec-28 11:29:04] [trace] [  JLink] - JLINK_CORESIGHT_ReadAPDPReg(AP reg 0x03)  
[2021-Dec-28 11:29:04] [trace] [  JLink] - Value=0x00000001
[2021-Dec-28 11:29:04] [trace] [  JLink] - - 5.127ms returns 0  
[2021-Dec-28 11:29:04] [trace] [  JLink] - JLINK_HasError()  
[2021-Dec-28 11:29:04] [debug] [SeggerBackend] - read_access_port_register
[2021-Dec-28 11:29:04] [debug] [SeggerBackend] - ---just_read_access_port_register
[2021-Dec-28 11:29:04] [debug] [SeggerBackend] - ---just_select_access_port_register
[2021-Dec-28 11:29:04] [trace] [  JLink] - JLINK_CORESIGHT_ReadAPDPReg(AP reg 0x03)  
[2021-Dec-28 11:29:04] [trace] [  JLink] - Value=0x00000001
[2021-Dec-28 11:29:04] [trace] [  JLink] - - 3.948ms returns 0  
[2021-Dec-28 11:29:04] [trace] [  JLink] - JLINK_HasError()  
[2021-Dec-28 11:29:04] [debug] [SeggerBackend] - read_access_port_register
[2021-Dec-28 11:29:04] [debug] [SeggerBackend] - ---just_read_access_port_register
[2021-Dec-28 11:29:04] [debug] [SeggerBackend] - ---just_select_access_port_register
[2021-Dec-28 11:29:04] [trace] [  JLink] - JLINK_CORESIGHT_ReadAPDPReg(AP reg 0x03)  
[2021-Dec-28 11:29:04] [trace] [  JLink] - Value=0x00000001
[2021-Dec-28 11:29:04] [trace] [  JLink] - - 7.509ms returns 0  
[2021-Dec-28 11:29:04] [trace] [  JLink] - JLINK_HasError()  
[2021-Dec-28 11:29:04] [debug] [SeggerBackend] - read_access_port_register
[2021-Dec-28 11:29:04] [debug] [SeggerBackend] - ---just_read_access_port_register
[2021-Dec-28 11:29:04] [debug] [SeggerBackend] - ---just_select_access_port_register
[2021-Dec-28 11:29:04] [trace] [  JLink] - JLINK_CORESIGHT_ReadAPDPReg(AP reg 0x03)  
[2021-Dec-28 11:29:04] [trace] [  JLink] - Value=0x00000001
[2021-Dec-28 11:29:04] [trace] [  JLink] - - 3.243ms returns 0  
[2021-Dec-28 11:29:04] [trace] [  JLink] - JLINK_HasError()  
[2021-Dec-28 11:29:04] [ info] [  nRF52] - Protection status read as NONE
[2021-Dec-28 11:29:04] [debug] [SeggerBackend] - read_u32
[2021-Dec-28 11:29:04] [debug] [SeggerBackend] - ---just_connect_to_device
[2021-Dec-28 11:29:04] [debug] [SeggerBackend] - is_connected_to_device
[2021-Dec-28 11:29:04] [trace] [  JLink] - JLINK_IsConnected()  
[2021-Dec-28 11:29:04] [trace] [  JLink] - - 0.006ms returns FALSE  
[2021-Dec-28 11:29:04] [trace] [  JLink] - JLINK_HasError()  
[2021-Dec-28 11:29:04] [debug] [SeggerBackend] - ---set_coresight_ahb_ap_index
[2021-Dec-28 11:29:04] [trace] [  JLink] - JLINK_ExecCommand("CORESIGHT_SetIndexAHBAPToUse = 0", ...).   
[2021-Dec-28 11:29:04] [trace] [  JLink] - - 0.004ms returns 0x00  
[2021-Dec-28 11:29:04] [trace] [  JLink] - JLINK_HasError()  
[2021-Dec-28 11:29:04] [trace] [  JLink] - JLINK_ExecCommand("device = Cortex-M4", ...).   
[2021-Dec-28 11:29:04] [trace] [  JLink] - Device "CORTEX-M4" selected.
[2021-Dec-28 11:29:04] [trace] [  JLink] - Device "CORTEX-M4" selected.
[2021-Dec-28 11:29:04] [trace] [  JLink] - - 0.243ms returns 0x00  
[2021-Dec-28 11:29:04] [trace] [  JLink] - JLINK_HasError()  
[2021-Dec-28 11:29:04] [debug] [SeggerBackend] - ---just_write_debug_port_register
[2021-Dec-28 11:29:04] [debug] [SeggerBackend] - ---just_select_debug_port_register
[2021-Dec-28 11:29:04] [trace] [  JLink] - JLINK_CORESIGHT_WriteAPDPReg(DP reg 0x02, 0x00000000)  
[2021-Dec-28 11:29:04] [trace] [  JLink] - - 5.862ms returns 0  
[2021-Dec-28 11:29:04] [trace] [  JLink] - JLINK_HasError()  
[2021-Dec-28 11:29:04] [trace] [  JLink] - JLINK_Connect()  
[2021-Dec-28 11:29:04] [trace] [  JLink] - Found SW-DP with ID 0x2BA01477
[2021-Dec-28 11:29:04] [trace] [  JLink] - Found SW-DP with ID 0x2BA01477
[2021-Dec-28 11:29:04] [trace] [  JLink] - DPIDR: 0x2BA01477
[2021-Dec-28 11:29:04] [trace] [  JLink] - DPIDR: 0x2BA01477
[2021-Dec-28 11:29:04] [trace] [  JLink] - CoreSight SoC-400 or earlier
[2021-Dec-28 11:29:04] [trace] [  JLink] - CoreSight SoC-400 or earlier
[2021-Dec-28 11:29:04] [trace] [  JLink] - AP map detection skipped. Manually configured AP map found.
[2021-Dec-28 11:29:04] [trace] [  JLink] - AP map detection skipped. Manually configured AP map found.
[2021-Dec-28 11:29:04] [trace] [  JLink] - AP[0]: AHB-AP (IDR: Not set)
[2021-Dec-28 11:29:04] [trace] [  JLink] - AP[0]: AHB-AP (IDR: Not set)
[2021-Dec-28 11:29:04] [trace] [  JLink] - AP[0]: Core found
[2021-Dec-28 11:29:04] [trace] [  JLink] - AP[0]: Core found
[2021-Dec-28 11:29:04] [trace] [  JLink] - AP[0]: AHB-AP ROM base: 0xE00FF000
[2021-Dec-28 11:29:04] [trace] [  JLink] - AP[0]: AHB-AP ROM base: 0xE00FF000
[2021-Dec-28 11:29:04] [trace] [  JLink] - CPUID register: 0x410FC241. Implementer code: 0x41 (ARM)
[2021-Dec-28 11:29:04] [trace] [  JLink] - CPUID register: 0x410FC241. Implementer code: 0x41 (ARM)
[2021-Dec-28 11:29:04] [trace] [  JLink] - Found Cortex-M4 r0p1, Little endian.
[2021-Dec-28 11:29:04] [trace] [  JLink] - Found Cortex-M4 r0p1, Little endian.
[2021-Dec-28 11:29:04] [trace] [  JLink] - -- Max. mem block: 0x000049B0
[2021-Dec-28 11:29:04] [trace] [  JLink] - CPU_ReadMem(4 bytes @ 0xE000EDF0)
[2021-Dec-28 11:29:04] [trace] [  JLink] - CPU_WriteMem(4 bytes @ 0xE000EDF0)
[2021-Dec-28 11:29:04] [trace] [  JLink] - CPU_ReadMem(4 bytes @ 0xE0002000)
[2021-Dec-28 11:29:04] [trace] [  JLink] - FPUnit: 6 code (BP) slots and 2 literal slots
[2021-Dec-28 11:29:04] [trace] [  JLink] - FPUnit: 6 code (BP) slots and 2 literal slots
[2021-Dec-28 11:29:04] [trace] [  JLink] - CPU_ReadMem(4 bytes @ 0xE000EDFC)
[2021-Dec-28 11:29:04] [trace] [  JLink] - CPU_WriteMem(4 bytes @ 0xE000EDFC)
[2021-Dec-28 11:29:04] [trace] [  JLink] - CPU_ReadMem(4 bytes @ 0xE0001000)
[2021-Dec-28 11:29:04] [trace] [  JLink] - CPU_WriteMem(4 bytes @ 0xE0001000)
[2021-Dec-28 11:29:04] [trace] [  JLink] - CPU_ReadMem(4 bytes @ 0xE000ED88)
[2021-Dec-28 11:29:04] [trace] [  JLink] - CPU_WriteMem(4 bytes @ 0xE000ED88)
[2021-Dec-28 11:29:04] [trace] [  JLink] - CPU_ReadMem(4 bytes @ 0xE000ED88)
[2021-Dec-28 11:29:04] [trace] [  JLink] - CPU_WriteMem(4 bytes @ 0xE000ED88)
[2021-Dec-28 11:29:04] [trace] [  JLink] - CoreSight components:
[2021-Dec-28 11:29:04] [trace] [  JLink] - CoreSight components:
[2021-Dec-28 11:29:04] [trace] [  JLink] - ROMTbl[0] @ E00FF000
[2021-Dec-28 11:29:04] [trace] [  JLink] - ROMTbl[0] @ E00FF000
[2021-Dec-28 11:29:04] [trace] [  JLink] - CPU_ReadMem(64 bytes @ 0xE00FF000)
[2021-Dec-28 11:29:04] [trace] [  JLink] - CPU_ReadMem(32 bytes @ 0xE000EFE0)
[2021-Dec-28 11:29:04] [trace] [  JLink] - [0][0]: E000E000 CID B105E00D PID 000BB00C SCS-M7
[2021-Dec-28 11:29:04] [trace] [  JLink] - [0][0]: E000E000 CID B105E00D PID 000BB00C SCS-M7
[2021-Dec-28 11:29:04] [trace] [  JLink] - CPU_ReadMem(32 bytes @ 0xE0001FE0)
[2021-Dec-28 11:29:04] [trace] [  JLink] - [0][1]: E0001000 CID B105E00D PID 003BB002 DWT
[2021-Dec-28 11:29:04] [trace] [  JLink] - [0][1]: E0001000 CID B105E00D PID 003BB002 DWT
[2021-Dec-28 11:29:04] [trace] [  JLink] - CPU_ReadMem(32 bytes @ 0xE0002FE0)
[2021-Dec-28 11:29:04] [trace] [  JLink] - [0][2]: E0002000 CID B105E00D PID 002BB003 FPB
[2021-Dec-28 11:29:04] [trace] [  JLink] - [0][2]: E0002000 CID B105E00D PID 002BB003 FPB
[2021-Dec-28 11:29:04] [trace] [  JLink] - CPU_ReadMem(32 bytes @ 0xE0000FE0)
[2021-Dec-28 11:29:04] [trace] [  JLink] - [0][3]: E0000000 CID B105E00D PID 003BB001 ITM
[2021-Dec-28 11:29:04] [trace] [  JLink] - [0][3]: E0000000 CID B105E00D PID 003BB001 ITM
[2021-Dec-28 11:29:04] [trace] [  JLink] - CPU_ReadMem(32 bytes @ 0xE0040FE0)
[2021-Dec-28 11:29:04] [trace] [  JLink] - [0][4]: E0040000 CID B105900D PID 000BB9A1 TPIU
[2021-Dec-28 11:29:04] [trace] [  JLink] - [0][4]: E0040000 CID B105900D PID 000BB9A1 TPIU
[2021-Dec-28 11:29:04] [trace] [  JLink] - CPU_ReadMem(32 bytes @ 0xE0041FE0)
[2021-Dec-28 11:29:04] [trace] [  JLink] - [0][5]: E0041000 CID B105900D PID 000BB925 ETM
[2021-Dec-28 11:29:04] [trace] [  JLink] - [0][5]: E0041000 CID B105900D PID 000BB925 ETM
[2021-Dec-28 11:29:04] [trace] [  JLink] - - 266.507ms returns 0x00  
[2021-Dec-28 11:29:04] [trace] [  JLink] - JLINK_HasError()  
[2021-Dec-28 11:29:04] [trace] [  JLink] - JLINK_CORE_GetFound()  
[2021-Dec-28 11:29:04] [trace] [  JLink] - - 0.008ms returns 0xE0000FF  
[2021-Dec-28 11:29:04] [debug] [SeggerBackend] - ---just_read_u32
[2021-Dec-28 11:29:04] [debug] [SeggerBackend] - ---just_invalidate_cache
[2021-Dec-28 11:29:04] [trace] [  JLink] - JLINK_ExecCommand("InvalidateCache", ...).   
[2021-Dec-28 11:29:04] [trace] [  JLink] - - 0.006ms returns 0x00  
[2021-Dec-28 11:29:04] [trace] [  JLink] - JLINK_HasError()  
[2021-Dec-28 11:29:04] [trace] [  JLink] - JLINK_ReadMemU32(0x10000130, 0x1 Items)  
[2021-Dec-28 11:29:04] [trace] [  JLink] - CPU_ReadMem(4 bytes @ 0x10000130)
[2021-Dec-28 11:29:04] [trace] [  JLink] - Data:  06 00 00 00
[2021-Dec-28 11:29:04] [trace] [  JLink] - - 4.171ms returns 1 (0x1)  
[2021-Dec-28 11:29:04] [trace] [  JLink] - JLINK_HasError()  
[2021-Dec-28 11:29:04] [debug] [SeggerBackend] - read_u32
[2021-Dec-28 11:29:04] [debug] [SeggerBackend] - ---just_connect_to_device
[2021-Dec-28 11:29:04] [debug] [SeggerBackend] - is_connected_to_device
[2021-Dec-28 11:29:04] [debug] [SeggerBackend] - ---just_read_u32
[2021-Dec-28 11:29:04] [debug] [SeggerBackend] - ---just_invalidate_cache
[2021-Dec-28 11:29:04] [trace] [  JLink] - JLINK_ExecCommand("InvalidateCache", ...).   
[2021-Dec-28 11:29:04] [trace] [  JLink] - - 0.004ms returns 0x00  
[2021-Dec-28 11:29:04] [trace] [  JLink] - JLINK_HasError()  
[2021-Dec-28 11:29:04] [trace] [  JLink] - JLINK_ReadMemU32(0x10000134, 0x1 Items)  
[2021-Dec-28 11:29:04] [trace] [  JLink] - CPU_ReadMem(4 bytes @ 0x10000134)
[2021-Dec-28 11:29:04] [trace] [  JLink] - Data:  06 00 00 00
[2021-Dec-28 11:29:04] [trace] [  JLink] - - 4.555ms returns 1 (0x1)  
[2021-Dec-28 11:29:04] [trace] [  JLink] - JLINK_HasError()  
[2021-Dec-28 11:29:04] [debug] [  nRF52] - Just_decode_device_version
[2021-Dec-28 11:29:04] [trace] [ Client] - Command read_device_info executed for 352 milliseconds with result 0
[2021-Dec-28 11:29:04] [debug] [ Client] - read_memory_descriptors
[2021-Dec-28 11:29:04] [debug] [SeggerBackend] - read_u32
[2021-Dec-28 11:29:04] [debug] [SeggerBackend] - ---just_connect_to_device
[2021-Dec-28 11:29:04] [debug] [SeggerBackend] - is_connected_to_device
[2021-Dec-28 11:29:04] [debug] [SeggerBackend] - ---just_read_u32
[2021-Dec-28 11:29:04] [debug] [SeggerBackend] - ---just_invalidate_cache
[2021-Dec-28 11:29:04] [trace] [  JLink] - JLINK_ExecCommand("InvalidateCache", ...).   
[2021-Dec-28 11:29:04] [trace] [  JLink] - - 0.004ms returns 0x00  
[2021-Dec-28 11:29:04] [trace] [  JLink] - JLINK_HasError()  
[2021-Dec-28 11:29:04] [trace] [  JLink] - JLINK_ReadMemU32(0x10000110, 0x1 Items)  
[2021-Dec-28 11:29:04] [trace] [  JLink] - CPU_ReadMem(4 bytes @ 0x10000110)
[2021-Dec-28 11:29:04] [trace] [  JLink] - Data:  00 02 00 00
[2021-Dec-28 11:29:04] [trace] [  JLink] - - 4.195ms returns 1 (0x1)  
[2021-Dec-28 11:29:04] [trace] [  JLink] - JLINK_HasError()  
[2021-Dec-28 11:29:04] [trace] [  JLink] - - 0.010ms  
[2021-Dec-28 11:29:04] [trace] [ Worker] - Command read_device_info executed for 352 milliseconds with result 0
[2021-Dec-28 11:29:04] [debug] [  nRF52] - read_memory_descriptors
[2021-Dec-28 11:29:04] [debug] [SeggerBackend] - is_connected_to_emu
[2021-Dec-28 11:29:04] [trace] [  JLink] - JLINK_IsOpen()  
[2021-Dec-28 11:29:04] [trace] [  JLink] - - 0.014ms returns 0x01  
[2021-Dec-28 11:29:04] [trace] [  JLink] - JLINK_HasError()  
[2021-Dec-28 11:29:04] [trace] [  JLink] - JLINK_Lock()  
[2021-Dec-28 11:29:04] [debug] [  nRF52] - Just_read_memory_descriptors
[2021-Dec-28 11:29:04] [debug] [  nRF52] - Just_readback_status
[2021-Dec-28 11:29:04] [debug] [  nRF52] - Just_is_ctrl_ap_available
[2021-Dec-28 11:29:04] [debug] [SeggerBackend] - read_access_port_register
[2021-Dec-28 11:29:04] [debug] [SeggerBackend] - ---just_read_access_port_register
[2021-Dec-28 11:29:04] [debug] [SeggerBackend] - ---just_is_debug_region_powered
[2021-Dec-28 11:29:04] [debug] [SeggerBackend] - ---just_read_debug_port_register
[2021-Dec-28 11:29:04] [debug] [SeggerBackend] - ---just_select_debug_port_register
[2021-Dec-28 11:29:04] [debug] [SeggerBackend] - Select AP 255, DP Bank 0, AP Bank 255
[2021-Dec-28 11:29:04] [trace] [  JLink] - JLINK_CORESIGHT_WriteAPDPReg(DP reg 0x02, 0x00000000)  
[2021-Dec-28 11:29:04] [trace] [  JLink] - - 3.752ms returns 0  
[2021-Dec-28 11:29:04] [trace] [  JLink] - JLINK_HasError()  
[2021-Dec-28 11:29:04] [trace] [  JLink] - JLINK_CORESIGHT_ReadAPDPReg(DP reg 0x01)  
[2021-Dec-28 11:29:04] [trace] [  JLink] - Value=0xF0000040
[2021-Dec-28 11:29:04] [trace] [  JLink] - - 5.817ms returns 0  
[2021-Dec-28 11:29:04] [trace] [  JLink] - JLINK_HasError()  
[2021-Dec-28 11:29:04] [debug] [SeggerBackend] - ---just_select_access_port_register
[2021-Dec-28 11:29:04] [debug] [SeggerBackend] - Select AP 1, DP Bank 0, AP Bank 15
[2021-Dec-28 11:29:04] [trace] [  JLink] - JLINK_CORESIGHT_WriteAPDPReg(DP reg 0x02, 0x010000F0)  
[2021-Dec-28 11:29:04] [trace] [  JLink] - - 4.952ms returns 0  
[2021-Dec-28 11:29:04] [trace] [  JLink] - JLINK_HasError()  
[2021-Dec-28 11:29:04] [trace] [  JLink] - JLINK_CORESIGHT_ReadAPDPReg(AP reg 0x03)  
[2021-Dec-28 11:29:05] [trace] [  JLink] - Value=0x02880000
[2021-Dec-28 11:29:05] [trace] [  JLink] - - 4.442ms returns 0  
[2021-Dec-28 11:29:05] [trace] [  JLink] - JLINK_HasError()  
[2021-Dec-28 11:29:05] [debug] [SeggerBackend] - read_access_port_register
[2021-Dec-28 11:29:05] [debug] [SeggerBackend] - ---just_read_access_port_register
[2021-Dec-28 11:29:05] [debug] [SeggerBackend] - ---just_select_access_port_register
[2021-Dec-28 11:29:05] [trace] [  JLink] - JLINK_CORESIGHT_ReadAPDPReg(AP reg 0x03)  
[2021-Dec-28 11:29:05] [trace] [  JLink] - Value=0x02880000
[2021-Dec-28 11:29:05] [trace] [  JLink] - - 3.337ms returns 0  
[2021-Dec-28 11:29:05] [trace] [  JLink] - JLINK_HasError()  
[2021-Dec-28 11:29:05] [debug] [SeggerBackend] - read_access_port_register
[2021-Dec-28 11:29:05] [debug] [SeggerBackend] - ---just_read_access_port_register
[2021-Dec-28 11:29:05] [debug] [SeggerBackend] - ---just_select_access_port_register
[2021-Dec-28 11:29:05] [trace] [  JLink] - JLINK_CORESIGHT_ReadAPDPReg(AP reg 0x03)  
[2021-Dec-28 11:29:05] [trace] [  JLink] - Value=0x02880000
[2021-Dec-28 11:29:05] [trace] [  JLink] - - 6.967ms returns 0  
[2021-Dec-28 11:29:05] [trace] [  JLink] - JLINK_HasError()  
[2021-Dec-28 11:29:05] [debug] [SeggerBackend] - read_access_port_register
[2021-Dec-28 11:29:05] [debug] [SeggerBackend] - ---just_read_access_port_register
[2021-Dec-28 11:29:05] [debug] [SeggerBackend] - ---just_select_access_port_register
[2021-Dec-28 11:29:05] [trace] [  JLink] - JLINK_CORESIGHT_ReadAPDPReg(AP reg 0x03)  
[2021-Dec-28 11:29:05] [trace] [  JLink] - Value=0x02880000
[2021-Dec-28 11:29:05] [trace] [  JLink] - - 2.339ms returns 0  
[2021-Dec-28 11:29:05] [trace] [  JLink] - JLINK_HasError()  
[2021-Dec-28 11:29:05] [debug] [SeggerBackend] - read_access_port_register
[2021-Dec-28 11:29:05] [debug] [SeggerBackend] - ---just_read_access_port_register
[2021-Dec-28 11:29:05] [debug] [SeggerBackend] - ---just_select_access_port_register
[2021-Dec-28 11:29:05] [debug] [SeggerBackend] - Select AP 1, DP Bank 0, AP Bank 0
[2021-Dec-28 11:29:05] [trace] [  JLink] - JLINK_CORESIGHT_WriteAPDPReg(DP reg 0x02, 0x01000000)  
[2021-Dec-28 11:29:05] [trace] [  JLink] - - 6.714ms returns 0  
[2021-Dec-28 11:29:05] [trace] [  JLink] - JLINK_HasError()  
[2021-Dec-28 11:29:05] [trace] [  JLink] - JLINK_CORESIGHT_ReadAPDPReg(AP reg 0x03)  
[2021-Dec-28 11:29:05] [trace] [  JLink] - Value=0x00000001
[2021-Dec-28 11:29:05] [trace] [  JLink] - - 3.265ms returns 0  
[2021-Dec-28 11:29:05] [trace] [  JLink] - JLINK_HasError()  
[2021-Dec-28 11:29:05] [debug] [SeggerBackend] - read_access_port_register
[2021-Dec-28 11:29:05] [debug] [SeggerBackend] - ---just_read_access_port_register
[2021-Dec-28 11:29:05] [debug] [SeggerBackend] - ---just_select_access_port_register
[2021-Dec-28 11:29:05] [trace] [  JLink] - JLINK_CORESIGHT_ReadAPDPReg(AP reg 0x03)  
[2021-Dec-28 11:29:05] [trace] [  JLink] - Value=0x00000001
[2021-Dec-28 11:29:05] [trace] [  JLink] - - 5.851ms returns 0  
[2021-Dec-28 11:29:05] [trace] [  JLink] - JLINK_HasError()  
[2021-Dec-28 11:29:05] [debug] [SeggerBackend] - read_access_port_register
[2021-Dec-28 11:29:05] [debug] [SeggerBackend] - ---just_read_access_port_register
[2021-Dec-28 11:29:05] [debug] [SeggerBackend] - ---just_select_access_port_register
[2021-Dec-28 11:29:05] [trace] [  JLink] - JLINK_CORESIGHT_ReadAPDPReg(AP reg 0x03)  
[2021-Dec-28 11:29:05] [trace] [  JLink] - Value=0x00000001
[2021-Dec-28 11:29:05] [trace] [  JLink] - - 5.876ms returns 0  
[2021-Dec-28 11:29:05] [trace] [  JLink] - JLINK_HasError()  
[2021-Dec-28 11:29:05] [debug] [SeggerBackend] - read_access_port_register
[2021-Dec-28 11:29:05] [debug] [SeggerBackend] - ---just_read_access_port_register
[2021-Dec-28 11:29:05] [debug] [SeggerBackend] - ---just_select_access_port_register
[2021-Dec-28 11:29:05] [trace] [  JLink] - JLINK_CORESIGHT_ReadAPDPReg(AP reg 0x03)  
[2021-Dec-28 11:29:05] [trace] [  JLink] - Value=0x00000001
[2021-Dec-28 11:29:05] [trace] [  JLink] - - 3.950ms returns 0  
[2021-Dec-28 11:29:05] [trace] [  JLink] - JLINK_HasError()  
[2021-Dec-28 11:29:05] [ info] [  nRF52] - Protection status read as NONE
[2021-Dec-28 11:29:05] [debug] [  nRF52] - update_device_memory_list
[2021-Dec-28 11:29:05] [debug] [  nRF52] - Just_read_device_version
[2021-Dec-28 11:29:05] [debug] [  nRF52] - Just_readback_status
[2021-Dec-28 11:29:05] [debug] [  nRF52] - Just_is_ctrl_ap_available
[2021-Dec-28 11:29:05] [debug] [SeggerBackend] - read_access_port_register
[2021-Dec-28 11:29:05] [debug] [SeggerBackend] - ---just_read_access_port_register
[2021-Dec-28 11:29:05] [debug] [SeggerBackend] - ---just_select_access_port_register
[2021-Dec-28 11:29:05] [debug] [SeggerBackend] - Select AP 1, DP Bank 0, AP Bank 15
[2021-Dec-28 11:29:05] [trace] [  JLink] - JLINK_CORESIGHT_WriteAPDPReg(DP reg 0x02, 0x010000F0)  
[2021-Dec-28 11:29:05] [trace] [  JLink] - - 4.654ms returns 0  
[2021-Dec-28 11:29:05] [trace] [  JLink] - JLINK_HasError()  
[2021-Dec-28 11:29:05] [trace] [  JLink] - JLINK_CORESIGHT_ReadAPDPReg(AP reg 0x03)  
[2021-Dec-28 11:29:05] [trace] [  JLink] - Value=0x02880000
[2021-Dec-28 11:29:05] [trace] [  JLink] - - 7.870ms returns 0  
[2021-Dec-28 11:29:05] [trace] [  JLink] - JLINK_HasError()  
[2021-Dec-28 11:29:05] [debug] [SeggerBackend] - read_access_port_register
[2021-Dec-28 11:29:05] [debug] [SeggerBackend] - ---just_read_access_port_register
[2021-Dec-28 11:29:05] [debug] [SeggerBackend] - ---just_select_access_port_register
[2021-Dec-28 11:29:05] [trace] [  JLink] - JLINK_CORESIGHT_ReadAPDPReg(AP reg 0x03)  
[2021-Dec-28 11:29:05] [trace] [  JLink] - Value=0x02880000
[2021-Dec-28 11:29:05] [trace] [  JLink] - - 3.362ms returns 0  
[2021-Dec-28 11:29:05] [trace] [  JLink] - JLINK_HasError()  
[2021-Dec-28 11:29:05] [debug] [SeggerBackend] - read_access_port_register
[2021-Dec-28 11:29:05] [debug] [SeggerBackend] - ---just_read_access_port_register
[2021-Dec-28 11:29:05] [debug] [SeggerBackend] - ---just_select_access_port_register
[2021-Dec-28 11:29:05] [trace] [  JLink] - JLINK_CORESIGHT_ReadAPDPReg(AP reg 0x03)  
[2021-Dec-28 11:29:05] [trace] [  JLink] - Value=0x02880000
[2021-Dec-28 11:29:05] [trace] [  JLink] - - 3.882ms returns 0  
[2021-Dec-28 11:29:05] [trace] [  JLink] - JLINK_HasError()  
[2021-Dec-28 11:29:05] [debug] [SeggerBackend] - read_access_port_register
[2021-Dec-28 11:29:05] [debug] [SeggerBackend] - ---just_read_access_port_register
[2021-Dec-28 11:29:05] [debug] [SeggerBackend] - ---just_select_access_port_register
[2021-Dec-28 11:29:05] [trace] [  JLink] - JLINK_CORESIGHT_ReadAPDPReg(AP reg 0x03)  
[2021-Dec-28 11:29:05] [trace] [  JLink] - Value=0x02880000
[2021-Dec-28 11:29:05] [trace] [  JLink] - - 3.474ms returns 0  
[2021-Dec-28 11:29:05] [trace] [  JLink] - JLINK_HasError()  
[2021-Dec-28 11:29:05] [debug] [SeggerBackend] - read_access_port_register
[2021-Dec-28 11:29:05] [debug] [SeggerBackend] - ---just_read_access_port_register
[2021-Dec-28 11:29:05] [debug] [SeggerBackend] - ---just_select_access_port_register
[2021-Dec-28 11:29:05] [debug] [SeggerBackend] - Select AP 1, DP Bank 0, AP Bank 0
[2021-Dec-28 11:29:05] [trace] [  JLink] - JLINK_CORESIGHT_WriteAPDPReg(DP reg 0x02, 0x01000000)  
[2021-Dec-28 11:29:05] [trace] [  JLink] - - 4.167ms returns 0  
[2021-Dec-28 11:29:05] [trace] [  JLink] - JLINK_HasError()  
[2021-Dec-28 11:29:05] [trace] [  JLink] - JLINK_CORESIGHT_ReadAPDPReg(AP reg 0x03)  
[2021-Dec-28 11:29:05] [trace] [  JLink] - Value=0x00000001
[2021-Dec-28 11:29:05] [trace] [  JLink] - - 4.347ms returns 0  
[2021-Dec-28 11:29:05] [trace] [  JLink] - JLINK_HasError()  
[2021-Dec-28 11:29:05] [debug] [SeggerBackend] - read_access_port_register
[2021-Dec-28 11:29:05] [debug] [SeggerBackend] - ---just_read_access_port_register
[2021-Dec-28 11:29:05] [debug] [SeggerBackend] - ---just_select_access_port_register
[2021-Dec-28 11:29:05] [trace] [  JLink] - JLINK_CORESIGHT_ReadAPDPReg(AP reg 0x03)  
[2021-Dec-28 11:29:05] [trace] [  JLink] - Value=0x00000001
[2021-Dec-28 11:29:05] [trace] [  JLink] - - 4.820ms returns 0  
[2021-Dec-28 11:29:05] [trace] [  JLink] - JLINK_HasError()  
[2021-Dec-28 11:29:05] [debug] [SeggerBackend] - read_access_port_register
[2021-Dec-28 11:29:05] [debug] [SeggerBackend] - ---just_read_access_port_register
[2021-Dec-28 11:29:05] [debug] [SeggerBackend] - ---just_select_access_port_register
[2021-Dec-28 11:29:05] [trace] [  JLink] - JLINK_CORESIGHT_ReadAPDPReg(AP reg 0x03)  
[2021-Dec-28 11:29:05] [trace] [  JLink] - Value=0x00000001
[2021-Dec-28 11:29:05] [trace] [  JLink] - - 5.714ms returns 0  
[2021-Dec-28 11:29:05] [trace] [  JLink] - JLINK_HasError()  
[2021-Dec-28 11:29:05] [debug] [SeggerBackend] - read_access_port_register
[2021-Dec-28 11:29:05] [debug] [SeggerBackend] - ---just_read_access_port_register
[2021-Dec-28 11:29:05] [debug] [SeggerBackend] - ---just_select_access_port_register
[2021-Dec-28 11:29:05] [trace] [  JLink] - JLINK_CORESIGHT_ReadAPDPReg(AP reg 0x03)  
[2021-Dec-28 11:29:05] [trace] [  JLink] - Value=0x00000001
[2021-Dec-28 11:29:05] [trace] [  JLink] - - 5.766ms returns 0  
[2021-Dec-28 11:29:05] [trace] [  JLink] - JLINK_HasError()  
[2021-Dec-28 11:29:05] [ info] [  nRF52] - Protection status read as NONE
[2021-Dec-28 11:29:05] [debug] [SeggerBackend] - read_u32
[2021-Dec-28 11:29:05] [debug] [SeggerBackend] - ---just_connect_to_device
[2021-Dec-28 11:29:05] [debug] [SeggerBackend] - is_connected_to_device
[2021-Dec-28 11:29:05] [trace] [  JLink] - JLINK_IsConnected()  
[2021-Dec-28 11:29:05] [trace] [  JLink] - - 0.006ms returns TRUE  
[2021-Dec-28 11:29:05] [trace] [  JLink] - JLINK_HasError()  
[2021-Dec-28 11:29:05] [debug] [SeggerBackend] - ---just_read_u32
[2021-Dec-28 11:29:05] [debug] [SeggerBackend] - ---just_invalidate_cache
[2021-Dec-28 11:29:05] [trace] [  JLink] - JLINK_ExecCommand("InvalidateCache", ...).   
[2021-Dec-28 11:29:05] [trace] [  JLink] - - 0.006ms returns 0x00  
[2021-Dec-28 11:29:05] [trace] [  JLink] - JLINK_HasError()  
[2021-Dec-28 11:29:05] [debug] [SeggerBackend] - ---just_write_debug_port_register
[2021-Dec-28 11:29:05] [debug] [SeggerBackend] - ---just_select_debug_port_register
[2021-Dec-28 11:29:05] [trace] [  JLink] - JLINK_CORESIGHT_WriteAPDPReg(DP reg 0x02, 0x00000000)  
[2021-Dec-28 11:29:05] [trace] [  JLink] - - 5.819ms returns 0  
[2021-Dec-28 11:29:05] [trace] [  JLink] - JLINK_HasError()  
[2021-Dec-28 11:29:05] [trace] [  JLink] - JLINK_ReadMemU32(0x10000130, 0x1 Items)  
[2021-Dec-28 11:29:05] [trace] [  JLink] - CPU_ReadMem(4 bytes @ 0x10000130)
[2021-Dec-28 11:29:05] [trace] [ Client] - Command read_memory_descriptors executed for 126 milliseconds with result 0
[2021-Dec-28 11:29:05] [debug] [ Client] - read_memory_descriptors
[2021-Dec-28 11:29:05] [trace] [  JLink] - Data:  06 00 00 00
[2021-Dec-28 11:29:05] [trace] [  JLink] - - 4.647ms returns 1 (0x1)  
[2021-Dec-28 11:29:05] [trace] [  JLink] - JLINK_HasError()  
[2021-Dec-28 11:29:05] [debug] [SeggerBackend] - read_u32
[2021-Dec-28 11:29:05] [debug] [SeggerBackend] - ---just_connect_to_device
[2021-Dec-28 11:29:05] [debug] [SeggerBackend] - is_connected_to_device
[2021-Dec-28 11:29:05] [debug] [SeggerBackend] - ---just_read_u32
[2021-Dec-28 11:29:05] [debug] [SeggerBackend] - ---just_invalidate_cache
[2021-Dec-28 11:29:05] [trace] [  JLink] - JLINK_ExecCommand("InvalidateCache", ...).   
[2021-Dec-28 11:29:05] [trace] [  JLink] - - 0.004ms returns 0x00  
[2021-Dec-28 11:29:05] [trace] [  JLink] - JLINK_HasError()  
[2021-Dec-28 11:29:05] [trace] [  JLink] - JLINK_ReadMemU32(0x10000134, 0x1 Items)  
[2021-Dec-28 11:29:05] [trace] [  JLink] - CPU_ReadMem(4 bytes @ 0x10000134)
[2021-Dec-28 11:29:05] [trace] [  JLink] - Data:  06 00 00 00
[2021-Dec-28 11:29:05] [trace] [  JLink] - - 4.197ms returns 1 (0x1)  
[2021-Dec-28 11:29:05] [trace] [  JLink] - JLINK_HasError()  
[2021-Dec-28 11:29:05] [debug] [  nRF52] - Just_decode_device_version
[2021-Dec-28 11:29:05] [debug] [SeggerBackend] - read_u32
[2021-Dec-28 11:29:05] [debug] [SeggerBackend] - ---just_connect_to_device
[2021-Dec-28 11:29:05] [debug] [SeggerBackend] - is_connected_to_device
[2021-Dec-28 11:29:05] [debug] [SeggerBackend] - ---just_read_u32
[2021-Dec-28 11:29:05] [debug] [SeggerBackend] - ---just_invalidate_cache
[2021-Dec-28 11:29:05] [trace] [  JLink] - JLINK_ExecCommand("InvalidateCache", ...).   
[2021-Dec-28 11:29:05] [trace] [  JLink] - - 0.005ms returns 0x00  
[2021-Dec-28 11:29:05] [trace] [  JLink] - JLINK_HasError()  
[2021-Dec-28 11:29:05] [trace] [  JLink] - JLINK_ReadMemU32(0x10000110, 0x1 Items)  
[2021-Dec-28 11:29:05] [trace] [  JLink] - CPU_ReadMem(4 bytes @ 0x10000110)
[2021-Dec-28 11:29:05] [trace] [  JLink] - Data:  00 02 00 00
[2021-Dec-28 11:29:05] [trace] [  JLink] - - 4.997ms returns 1 (0x1)  
[2021-Dec-28 11:29:05] [trace] [  JLink] - JLINK_HasError()  
[2021-Dec-28 11:29:05] [debug] [  nRF52] - Read memory description from family DLL: "Flash" [0x00000000-0x00080000] 128 pages (128x4kB) static ID0
[2021-Dec-28 11:29:05] [debug] [  nRF52] - Read memory description from family DLL: "Code RAM" [0x00800000-0x00810000] 16 pages (16x4kB) static ID8388608
[2021-Dec-28 11:29:05] [debug] [  nRF52] - Read memory description from family DLL: "FICR" [0x10000000-0x10001000] 1 pages (1x4kB) static ID268435456
[2021-Dec-28 11:29:05] [debug] [  nRF52] - Read memory description from family DLL: "UICR" [0x10001000-0x10002000] 1 pages (1x4kB) static ID268439552
[2021-Dec-28 11:29:05] [debug] [  nRF52] - Read memory description from family DLL: "RAM" [0x20000000-0x20010000] 16 pages (16x4kB) static ID536870912
[2021-Dec-28 11:29:05] [trace] [  JLink] - - 0.063ms  
[2021-Dec-28 11:29:05] [trace] [ Worker] - Command read_memory_descriptors executed for 125 milliseconds with result 0
[2021-Dec-28 11:29:05] [debug] [  nRF52] - read_memory_descriptors
[2021-Dec-28 11:29:05] [debug] [SeggerBackend] - is_connected_to_emu
[2021-Dec-28 11:29:05] [trace] [  JLink] - JLINK_IsOpen()  
[2021-Dec-28 11:29:05] [trace] [  JLink] - - 0.013ms returns 0x01  
[2021-Dec-28 11:29:05] [trace] [  JLink] - JLINK_HasError()  
[2021-Dec-28 11:29:05] [trace] [  JLink] - JLINK_Lock()  
[2021-Dec-28 11:29:05] [debug] [  nRF52] - Just_read_memory_descriptors
[2021-Dec-28 11:29:05] [debug] [  nRF52] - Just_readback_status
[2021-Dec-28 11:29:05] [debug] [  nRF52] - Just_is_ctrl_ap_available
[2021-Dec-28 11:29:05] [debug] [SeggerBackend] - read_access_port_register
[2021-Dec-28 11:29:05] [debug] [SeggerBackend] - ---just_read_access_port_register
[2021-Dec-28 11:29:05] [debug] [SeggerBackend] - ---just_is_debug_region_powered
[2021-Dec-28 11:29:05] [debug] [SeggerBackend] - ---just_read_debug_port_register
[2021-Dec-28 11:29:05] [debug] [SeggerBackend] - ---just_select_debug_port_register
[2021-Dec-28 11:29:05] [debug] [SeggerBackend] - Select AP 255, DP Bank 0, AP Bank 255
[2021-Dec-28 11:29:05] [trace] [  JLink] - JLINK_CORESIGHT_WriteAPDPReg(DP reg 0x02, 0x00000000)  
[2021-Dec-28 11:29:05] [trace] [  JLink] - - 5.468ms returns 0  
[2021-Dec-28 11:29:05] [trace] [  JLink] - JLINK_HasError()  
[2021-Dec-28 11:29:05] [trace] [  JLink] - JLINK_CORESIGHT_ReadAPDPReg(DP reg 0x01)  
[2021-Dec-28 11:29:05] [trace] [  JLink] - Value=0xF0000040
[2021-Dec-28 11:29:05] [trace] [  JLink] - - 4.268ms returns 0  
[2021-Dec-28 11:29:05] [trace] [  JLink] - JLINK_HasError()  
[2021-Dec-28 11:29:05] [debug] [SeggerBackend] - ---just_select_access_port_register
[2021-Dec-28 11:29:05] [debug] [SeggerBackend] - Select AP 1, DP Bank 0, AP Bank 15
[2021-Dec-28 11:29:05] [trace] [  JLink] - JLINK_CORESIGHT_WriteAPDPReg(DP reg 0x02, 0x010000F0)  
[2021-Dec-28 11:29:05] [trace] [  JLink] - - 5.817ms returns 0  
[2021-Dec-28 11:29:05] [trace] [  JLink] - JLINK_HasError()  
[2021-Dec-28 11:29:05] [trace] [  JLink] - JLINK_CORESIGHT_ReadAPDPReg(AP reg 0x03)  
[2021-Dec-28 11:29:05] [trace] [  JLink] - Value=0x02880000
[2021-Dec-28 11:29:05] [trace] [  JLink] - - 4.974ms returns 0  
[2021-Dec-28 11:29:05] [trace] [  JLink] - JLINK_HasError()  
[2021-Dec-28 11:29:05] [debug] [SeggerBackend] - read_access_port_register
[2021-Dec-28 11:29:05] [debug] [SeggerBackend] - ---just_read_access_port_register
[2021-Dec-28 11:29:05] [debug] [SeggerBackend] - ---just_select_access_port_register
[2021-Dec-28 11:29:05] [trace] [  JLink] - JLINK_CORESIGHT_ReadAPDPReg(AP reg 0x03)  
[2021-Dec-28 11:29:05] [trace] [  JLink] - Value=0x02880000
[2021-Dec-28 11:29:05] [trace] [  JLink] - - 6.042ms returns 0  
[2021-Dec-28 11:29:05] [trace] [  JLink] - JLINK_HasError()  
[2021-Dec-28 11:29:05] [debug] [SeggerBackend] - read_access_port_register
[2021-Dec-28 11:29:05] [debug] [SeggerBackend] - ---just_read_access_port_register
[2021-Dec-28 11:29:05] [debug] [SeggerBackend] - ---just_select_access_port_register
[2021-Dec-28 11:29:05] [trace] [  JLink] - JLINK_CORESIGHT_ReadAPDPReg(AP reg 0x03)  
[2021-Dec-28 11:29:05] [trace] [  JLink] - Value=0x02880000
[2021-Dec-28 11:29:05] [trace] [  JLink] - - 3.894ms returns 0  
[2021-Dec-28 11:29:05] [trace] [  JLink] - JLINK_HasError()  
[2021-Dec-28 11:29:05] [debug] [SeggerBackend] - read_access_port_register
[2021-Dec-28 11:29:05] [debug] [SeggerBackend] - ---just_read_access_port_register
[2021-Dec-28 11:29:05] [debug] [SeggerBackend] - ---just_select_access_port_register
[2021-Dec-28 11:29:05] [trace] [  JLink] - JLINK_CORESIGHT_ReadAPDPReg(AP reg 0x03)  
[2021-Dec-28 11:29:05] [trace] [  JLink] - Value=0x02880000
[2021-Dec-28 11:29:05] [trace] [  JLink] - - 5.737ms returns 0  
[2021-Dec-28 11:29:05] [trace] [  JLink] - JLINK_HasError()  
[2021-Dec-28 11:29:05] [debug] [SeggerBackend] - read_access_port_register
[2021-Dec-28 11:29:05] [debug] [SeggerBackend] - ---just_read_access_port_register
[2021-Dec-28 11:29:05] [debug] [SeggerBackend] - ---just_select_access_port_register
[2021-Dec-28 11:29:05] [debug] [SeggerBackend] - Select AP 1, DP Bank 0, AP Bank 0
[2021-Dec-28 11:29:05] [trace] [  JLink] - JLINK_CORESIGHT_WriteAPDPReg(DP reg 0x02, 0x01000000)  
[2021-Dec-28 11:29:05] [trace] [  JLink] - - 5.875ms returns 0  
[2021-Dec-28 11:29:05] [trace] [  JLink] - JLINK_HasError()  
[2021-Dec-28 11:29:05] [trace] [  JLink] - JLINK_CORESIGHT_ReadAPDPReg(AP reg 0x03)  
[2021-Dec-28 11:29:05] [trace] [  JLink] - Value=0x00000001
[2021-Dec-28 11:29:05] [trace] [  JLink] - - 5.842ms returns 0  
[2021-Dec-28 11:29:05] [trace] [  JLink] - JLINK_HasError()  
